!CSV A.01.01
!Keysight Technologies,N5232B,MY57181148,A.12.85.08
!Date: Tuesday, September 05, 2023 17:54:55
!Source: Standard

BEGIN CH1_DATA
Freq(Hz),S11(MAG),S11(DEG),S12(MAG),S12(DEG),S21(MAG),S21(DEG),S22(MAG),S22(DEG)
300000,0.99992144,-0.21181512,2.5714668e-005,-176.8528,4.2832293e-005,-152.70662,0.99283373,-0.19622484
316572.19073024,0.99955636,-0.23855399,7.9378924e-006,129.99391,1.7095623e-005,-76.858131,0.99275523,-0.21942772
333144.38146049,0.99970341,-0.2332949,1.7093344e-005,-68.445969,1.9876548e-005,82.581688,0.99298346,-0.22614402
349716.57219073,0.99964178,-0.25092521,2.5422583e-005,28.681276,3.5889727e-005,-35.79356,0.99265343,-0.2312161
366288.76292097,0.99994373,-0.25928816,8.0661721e-006,-85.150253,1.5399792e-005,171.5014,0.99289566,-0.24016967
382860.95365122,0.99985737,-0.26888952,4.8723883e-005,-156.42003,2.3999453e-005,99.771881,0.99269313,-0.26144099
399433.14438146,0.99959415,-0.27141654,6.8603335e-006,-159.40225,1.5783184e-005,-137.79584,0.99266708,-0.28238165
416005.3351117,0.99990863,-0.30024812,1.5095313e-005,91.252312,1.5615393e-005,45.695328,0.99261212,-0.27814597
432577.52584195,0.99987757,-0.28608903,2.1087293e-005,-37.394543,5.3357518e-005,166.2668,0.99277604,-0.30194506
449149.71657219,0.9999634,-0.2992512,2.7583137e-005,61.518505,1.3720386e-005,-8.8197632,0.99252629,-0.31539968
465721.90730243,0.99987072,-0.31054297,1.689895e-005,178.6841,4.0695537e-005,138.83044,0.99268007,-0.32814088
482294.09803268,1.0000226,-0.33049759,4.0913124e-005,-53.972424,2.642941e-005,-141.20515,0.99260724,-0.34974629
498866.28876292,0.99990946,-0.34086487,1.2067145e-005,-105.30014,3.0187981e-005,10.533092,0.99295545,-0.35654047
515438.47949316,0.99978614,-0.35700223,3.3514883e-005,40.795494,1.6313372e-005,-97.661446,0.99252778,-0.36174762
532010.67022341,0.99971026,-0.36155871,1.991016e-005,-46.526741,3.3865752e-005,-175.38905,0.99243456,-0.37511134
548582.86095365,0.99976504,-0.37797531,4.2637363e-005,-102.05632,8.6955706e-006,-62.224232,0.99253058,-0.395381
565155.05168389,0.99962056,-0.39458415,3.1373285e-005,-155.18103,3.1291995e-005,-129.91936,0.99228632,-0.40319648
581727.24241414,0.99961793,-0.4021827,5.4145807e-005,-127.99841,4.9578666e-005,-135.47006,0.99264926,-0.43682489
598299.43314438,0.99965835,-0.40996492,4.4932629e-005,-86.624596,3.2133285e-005,-120.96195,0.99247074,-0.44248796
614871.62387462,0.99969709,-0.42038667,1.2058956e-005,-118.46967,3.1258671e-005,133.93428,0.99234581,-0.43930623
631443.81460487,0.99983823,-0.43891144,2.4171535e-005,-110.81596,3.6219957e-005,-162.35829,0.99252778,-0.45671591
648016.00533511,0.99979889,-0.42669225,9.8848395e-006,-50.695812,5.4162989e-005,145.76636,0.99224764,-0.44888127
664588.19606536,0.99962264,-0.44538841,5.2033083e-005,128.62466,3.8157992e-005,-173.44894,0.99253333,-0.47974166
681160.3867956,0.9998669,-0.46532702,8.6531536e-006,-50.789207,3.776935e-005,62.582954,0.99239439,-0.4892877
697732.57752584,0.99969172,-0.46674216,1.7891567e-005,-93.314705,2.4047504e-005,139.23734,0.99239129,-0.50263953
714304.76825609,1.0000832,-0.47111443,2.6307947e-005,44.577103,1.37182e-005,12.348912,0.992392,-0.51045483
730876.95898633,0.99988443,-0.49127769,3.4834058e-005,141.82127,2.9773559e-005,168.74179,0.99229079,-0.51381338
747449.14971657,1.0000296,-0.50741959,2.2945726e-005,134.52869,1.3480506e-005,-92.526421,0.9921968,-0.5302183
764021.34044682,0.9996751,-0.51494771,2.0824526e-005,98.696625,2.9489833e-005,31.96698,0.99221736,-0.54239941
780593.53117706,0.99981803,-0.52469242,2.0356334e-005,-28.230467,1.6030748e-005,-2.838825,0.99239063,-0.55215621
797165.7219073,0.99963802,-0.53603232,3.4528006e-005,-89.394623,1.2521245e-005,-175.8412,0.99231178,-0.57280809
813737.91263755,0.99987441,-0.54187691,3.8365393e-005,-24.907082,3.813221e-005,107.59538,0.99222988,-0.57354039
830310.10336779,0.9997685,-0.56822288,3.6334583e-005,12.316129,1.154562e-005,-34.932079,0.99201602,-0.57991433
846882.29409803,0.99955553,-0.55993944,1.8262343e-005,21.094652,2.3178269e-005,-18.903521,0.99211991,-0.61052597
863454.48482828,0.99974245,-0.58141875,3.266428e-005,175.2738,7.3638012e-006,152.65099,0.99213761,-0.61574906
880026.67555852,0.99979693,-0.58442736,1.4945217e-005,175.79915,9.8475402e-006,-58.055504,0.99197948,-0.62346864
896598.86628876,0.99980241,-0.58752853,1.3018946e-005,177.13519,1.9205057e-005,156.76666,0.99197698,-0.63523555
913171.05701901,0.99948055,-0.59445959,7.0320944e-005,82.677917,2.8912582e-005,-85.237381,0.99193966,-0.64931732
929743.24774925,0.99980187,-0.62444288,3.6062582e-005,-173.06412,2.1141172e-005,129.23981,0.99196672,-0.6504128
946315.43847949,0.99979383,-0.63688838,1.3581828e-005,-0.62313277,1.7449993e-005,-74.803963,0.99213457,-0.66833293
962887.62920974,0.99993533,-0.6391868,1.7739709e-005,-176.13527,1.7191483e-005,99.783829,0.99196845,-0.68725353
979459.81993998,1.0000789,-0.65787381,2.5601503e-006,108.82446,1.7830975e-005,7.1473746,0.9919368,-0.69097245
996032.01067022,0.99963325,-0.66798645,3.1837484e-005,116.43475,1.7407488e-005,-68.391037,0.99184316,-0.6991905
1012604.2014005,0.99968362,-0.68447948,1.2105789e-005,-65.985275,1.8187464e-005,-47.010883,0.99207616,-0.71628428
1029176.3921307,0.99983555,-0.68419325,1.8063292e-005,80.996315,1.8880353e-005,-38.891178,0.99200302,-0.7284795
1045748.582861,0.99973077,-0.69688946,5.5027235e-006,-19.783682,6.9943731e-006,59.772865,0.99181676,-0.73819512
1062320.7735912,0.99970281,-0.70043314,1.7854714e-005,150.33258,1.8273309e-005,152.6572,0.99184722,-0.75415301
1078892.9643214,0.99992865,-0.71966457,1.3521301e-005,-10.64632,1.1703908e-005,-44.132481,0.99198973,-0.76780403
1095465.1550517,0.99982899,-0.72751683,1.6719219e-005,-134.71771,2.3827315e-005,-28.71258,0.99180257,-0.78591895
1112037.3457819,1.0000401,-0.74261439,1.1662404e-005,69.55584,1.4060151e-005,-99.315079,0.99205321,-0.78911972
1128609.5365122,0.99976802,-0.74996841,1.9366529e-005,-131.5553,8.5531901e-006,-178.92737,0.99207163,-0.80709028
1145181.7272424,0.99995947,-0.75667518,2.0742898e-005,-33.439674,2.0790096e-005,-148.44931,0.99188066,-0.82732403
1161753.9179727,0.99981475,-0.76512688,4.4161909e-005,-115.8955,2.6314407e-005,78.237198,0.991723,-0.82243782
1178326.1087029,0.99987268,-0.79014307,2.3004555e-005,94.997536,1.287209e-005,-1.5021436,0.99184531,-0.84841561
1194898.2994331,0.99962389,-0.79649979,1.0868145e-005,17.177952,9.8402807e-006,122.90617,0.99177653,-0.85187751
1211470.4901634,0.99986148,-0.81532913,2.4064273e-005,13.607289,5.8566397e-006,113.85354,0.99174392,-0.85404736
1228042.6808936,0.99984688,-0.80837423,1.5596677e-005,-81.650383,1.8233779e-005,-87.633659,0.99189073,-0.87401235
1244614.8716239,1.0000107,-0.83737832,1.2435542e-005,-143.46292,8.9011046e-006,-104.35454,0.99178427,-0.87778032
1261187.0623541,0.9998585,-0.84458214,7.0568417e-006,165.99956,1.1069071e-005,-133.83278,0.99173391,-0.90203726
1277759.2530844,0.99985349,-0.84094232,2.020349e-005,-139.29633,1.428783e-005,136.38559,0.99174476,-0.90581363
1294331.4438146,0.99980378,-0.86152244,1.7797076e-005,113.97968,1.1277009e-005,48.290184,0.99186462,-0.92252827
1310903.6345448,0.99985921,-0.87266994,2.6592128e-005,-130.12654,2.5834515e-005,-122.28559,0.99155575,-0.93580681
1327475.8252751,0.99969566,-0.88924897,1.3355255e-005,-127.14668,1.6609369e-005,106.30582,0.99162614,-0.93776292
1344048.0160053,0.99973536,-0.89698637,1.0699217e-005,-137.22202,3.2717864e-005,-38.108967,0.99150938,-0.96068555
1360620.2067356,0.99967146,-0.90954065,2.5828716e-005,-22.211271,9.6650556e-006,57.837872,0.99180263,-0.96365041
1377192.3974658,0.99972397,-0.92500985,1.3050237e-005,147.60611,2.1909556e-005,51.928925,0.99157518,-0.9856109
1393764.5881961,0.99969059,-0.91922939,2.2517315e-005,-21.311152,4.0357004e-006,-5.9698839,0.99174297,-1.0022987
1410336.7789263,0.99976546,-0.94497663,2.5459087e-005,-66.888733,1.7883529e-005,-166.47304,0.9916693,-0.99472326
1426908.9696566,0.99994844,-0.94676721,2.4624287e-006,-121.0531,1.954208e-005,-53.589729,0.99147612,-1.0348502
1443481.1603868,0.99964947,-0.96230203,1.3948329e-005,160.54613,3.1996355e-005,36.395317,0.99169922,-1.0191306
1460053.351117,0.99985909,-0.99728829,4.1864168e-005,-113.15112,1.7014092e-005,150.01205,0.9917013,-1.0479716
1476625.5418473,0.99983412,-0.99023283,2.1695076e-005,79.183052,1.4988143e-005,-89.855553,0.99168164,-1.0531356
1493197.7325775,0.99976337,-0.99402988,2.3338043e-005,148.05411,1.944297e-005,146.5341,0.99165726,-1.0653987
1509769.9233078,0.99980503,-1.0087759,2.9442457e-005,100.75861,1.5575291e-005,61.759514,0.99162114,-1.0775867
1526342.114038,0.9998402,-1.0214097,1.4293697e-005,104.02711,2.7229295e-005,-55.537189,0.99180406,-1.0942864
1542914.3047683,0.99972314,-1.0259098,2.0234726e-005,22.72142,3.619941e-005,-31.147121,0.99166942,-1.1116415
1559486.4954985,0.99995124,-1.0438864,2.6393639e-006,168.77722,5.1292791e-006,52.63274,0.99154329,-1.111136
1576058.6862287,0.99990612,-1.0446771,4.3299879e-005,-107.08231,5.125341e-006,-134.72696,0.99170917,-1.1276391
1592630.876959,0.99971676,-1.060289,1.6988279e-005,-111.84769,1.9178346e-005,-108.27705,0.99166131,-1.1401442
1609203.0676892,0.99974382,-1.0751044,2.4880317e-005,-141.77333,2.5304846e-005,177.29308,0.99179077,-1.1623349
1625775.2584195,0.99994349,-1.0905333,2.8307612e-005,-152.1505,1.968108e-005,125.13409,0.99170303,-1.1659297
1642347.4491497,0.99976879,-1.0890133,1.9727095e-005,92.155121,4.82838e-006,-28.332169,0.99167621,-1.1847943
1658919.63988,0.99977016,-1.1038051,1.4199834e-005,-57.406349,4.1927193e-005,-37.201012,0.99165922,-1.2004104
1675491.8306102,0.99991357,-1.1215515,2.1811122e-005,87.106636,3.9955852e-005,30.189276,0.99167854,-1.2075999
1692064.0213404,0.99966812,-1.1292773,7.4890954e-006,-84.569344,2.1429765e-005,-20.105453,0.99159396,-1.2171503
1708636.2120707,0.99963945,-1.1412237,1.1240149e-005,156.44524,2.1429114e-005,148.30772,0.99169266,-1.2120166
1725208.4028009,0.99965835,-1.1411546,8.2916977e-006,20.013292,1.1538964e-005,-176.12129,0.99162644,-1.2312781
1741780.5935312,0.99983782,-1.1676605,1.1548963e-005,-68.427055,2.3693678e-005,-96.942604,0.99147868,-1.2507106
1758352.7842614,0.99957466,-1.1652093,2.1836349e-005,125.62888,3.842008e-006,-105.75763,0.99145204,-1.2732943
1774924.9749917,0.99971634,-1.1789376,2.3962362e-005,114.53578,3.1009306e-005,42.384117,0.99158716,-1.2860979
1791497.1657219,0.99977517,-1.1907488,1.4324057e-005,-6.4553976,1.7584276e-005,129.94032,0.99155074,-1.2945839
1808069.3564522,0.99992156,-1.2107199,6.4342735e-006,-156.94165,8.7746521e-006,46.501289,0.99152172,-1.3198268
1824641.5471824,0.99976474,-1.2085631,4.8117676e-005,-155.71402,4.228231e-005,63.675682,0.99157482,-1.3109268
1841213.7379126,0.99989611,-1.2263763,7.8201738e-006,-89.215538,1.7072574e-005,-22.978437,0.99158531,-1.3228499
1857785.9286429,0.99972636,-1.2446716,2.8460698e-005,6.0883203,7.1146569e-006,178.11079,0.99160594,-1.3392791
1874358.1193731,0.99996305,-1.2537845,2.7543372e-005,-70.626381,1.2810075e-005,144.10144,0.9918443,-1.3469352
1890930.3101034,0.99982637,-1.2642421,2.082937e-005,113.98822,2.3531056e-005,139.42838,0.99155998,-1.3607146
1907502.5008336,0.99983865,-1.2767646,2.2717e-005,-110.53683,1.0321874e-005,63.194904,0.99165511,-1.3685477
1924074.6915639,0.99995399,-1.283909,1.9095813e-005,-30.163673,2.1927503e-005,-111.93286,0.99178797,-1.3867836
1940646.8822941,1.0000601,-1.283024,8.1883682e-006,137.42014,2.1621374e-005,10.787071,0.99150127,-1.3960184
1957219.0730243,0.99997282,-1.3199289,2.0541156e-005,-108.37545,1.9292591e-005,-84.860329,0.99161726,-1.4207093
1973791.2637546,0.99987066,-1.3296969,1.6680258e-005,-88.504883,2.1942222e-005,147.90372,0.99160218,-1.4202709
1990363.4544848,0.99981076,-1.3240416,9.4060151e-006,175.46877,1.1958396e-006,75.298447,0.99179775,-1.4410334
2006935.6452151,0.99980015,-1.3451257,1.9378353e-005,-48.463604,1.1121575e-005,123.13005,0.99161935,-1.4487523
2023507.8359453,0.99978566,-1.3479021,4.0805957e-005,-148.41132,3.848194e-005,169.69463,0.99161595,-1.4730128
2040080.0266756,0.99982256,-1.3661481,3.9507016e-005,-94.738136,2.3361645e-005,-8.0695257,0.99178898,-1.479028
2056652.2174058,0.99976403,-1.3623866,2.5777255e-005,-135.85704,7.6319575e-006,26.016462,0.99155015,-1.4735012
2073224.408136,0.99977773,-1.3637644,3.698911e-005,-13.303156,1.8587065e-005,170.70374,0.99170196,-1.5118585
2089796.5988663,0.99989039,-1.4038008,1.121534e-005,-168.82593,4.2522377e-005,-53.951954,0.99178147,-1.5013851
2106368.7895965,0.99982226,-1.4031086,2.0362226e-005,-22.594055,1.1617837e-005,111.09134,0.99158615,-1.5224169
2122940.9803268,0.99991751,-1.4264865,3.5287656e-005,-133.91809,2.2585267e-005,21.074064,0.991337,-1.5250164
2139513.171057,0.99981409,-1.4323939,2.2366909e-005,-27.986189,2.2345643e-005,92.272339,0.99146086,-1.5601979
2156085.3617873,0.99994528,-1.4322177,4.5695528e-005,85.231285,1.0921741e-005,-12.089003,0.99167383,-1.5563051
2172657.5525175,0.99993622,-1.4428482,1.0437188e-005,-163.16275,3.4372086e-005,-55.616081,0.99136966,-1.5748726
2189229.7432477,0.99967945,-1.4667499,1.9743587e-005,8.7058592,2.0371403e-005,111.19112,0.99171764,-1.592695
2205801.933978,0.99985826,-1.4678993,6.3444636e-006,-111.68872,4.4271826e-005,-30.422499,0.9915458,-1.5993888
2222374.1247082,1.0000932,-1.4776559,1.6546694e-005,-52.424904,1.9574507e-005,-174.06656,0.99171382,-1.6104879
2238946.3154385,0.99966806,-1.4810188,1.4594165e-005,46.946411,7.3442448e-006,109.90962,0.99167842,-1.6169609
2255518.5061687,0.99973923,-1.50929,3.6372803e-005,139.20241,1.3936856e-005,-61.832352,0.99164653,-1.6246842
2272090.696899,0.99985296,-1.5272548,1.6835826e-005,-141.68004,1.2276541e-005,37.229416,0.99135089,-1.6406783
2288662.8876292,0.99991155,-1.5293263,2.1088903e-005,-172.29202,2.9997713e-005,54.41806,0.99168366,-1.6612887
2305235.0783595,0.99970907,-1.5334752,2.0335679e-005,-100.46664,2.6215166e-005,51.853233,0.99154282,-1.6771641
2321807.2690897,0.99992347,-1.554933,3.2014268e-005,-126.74699,1.0233573e-005,-98.994469,0.99163848,-1.6789587
2338379.4598199,0.99990249,-1.5628361,4.5284369e-006,39.699581,1.6613196e-005,-146.40433,0.99160159,-1.6925778
2354951.6505502,0.9996956,-1.5664181,4.5720572e-005,173.33224,2.0459727e-005,-164.50345,0.99172521,-1.7176363
2371523.8412804,0.99997884,-1.5855756,2.4388351e-005,-115.79202,2.4905779e-005,-27.171806,0.99150395,-1.7207017
2388096.0320107,0.99991369,-1.5789025,2.0236725e-005,-169.97581,2.5003232e-005,119.74989,0.99169111,-1.730913
2404668.2227409,1.0000094,-1.6024814,1.4729972e-005,116.87073,1.6535023e-005,52.55722,0.99154794,-1.7481254
2421240.4134712,0.99984914,-1.6012322,6.29952e-006,-174.00397,2.0395917e-005,4.4137855,0.99159002,-1.7535974
2437812.6042014,1.0000544,-1.6262494,5.1887488e-005,5.3898115,1.7787748e-005,-17.057055,0.9917413,-1.7624404
2454384.7949316,0.99982184,-1.6379434,1.3759109e-005,-47.928589,3.9665374e-005,-100.47818,0.99159253,-1.7808634
2470956.9856619,0.99983335,-1.6606071,4.8640559e-005,155.32591,1.0416904e-005,0.33058447,0.99152458,-1.7918637
2487529.1763921,1.0000734,-1.6500559,2.6729113e-005,-135.91891,2.85651e-005,112.84583,0.9917925,-1.8134699
2504101.3671224,0.99995905,-1.6803523,5.6076966e-005,169.44293,8.7442959e-006,-100.10099,0.99167806,-1.8127348
2520673.5578526,0.99983716,-1.6880829,4.5827474e-005,40.695282,1.538897e-005,134.12578,0.99163884,-1.843946
2537245.7485829,0.99995834,-1.7015921,2.3842013e-005,-142.68874,2.1161513e-005,-146.37631,0.99157417,-1.8446218
2553817.9393131,0.99964321,-1.7155951,1.4588494e-005,178.67642,8.7398957e-006,111.53754,0.99182308,-1.8599049
2570390.1300433,1.0000107,-1.7099651,1.9800162e-005,-145.41014,1.9328761e-005,-87.690697,0.99179608,-1.8859665
2586962.3207736,0.99996114,-1.7481959,1.3011739e-005,-104.30159,3.0280664e-005,97.522049,0.99166858,-1.8910583
2603534.5115038,0.99988222,-1.7424887,3.9617687e-005,128.21741,3.0232422e-005,53.117691,0.99168211,-1.8967013
2620106.7022341,0.99990577,-1.7541966,2.9444336e-005,29.975891,5.7472839e-006,-63.847256,0.9917438,-1.901175
2636678.8929643,0.99975419,-1.777715,2.1909953e-005,-167.48805,1.6229205e-005,67.509834,0.99144918,-1.9218972
2653251.0836946,0.99990445,-1.77949,1.4288564e-005,-86.904709,2.5139487e-005,115.3407,0.99151945,-1.9231778
2669823.2744248,1.0004324,-1.7985963,2.2299684e-005,-54.716061,2.2306931e-005,82.994965,0.99135375,-1.9332733
2686395.4651551,0.99993873,-1.803117,2.5285097e-005,147.2984,4.7255427e-005,-53.784508,0.99186528,-1.9589442
2702967.6558853,0.99991494,-1.8228983,2.9404651e-005,-116.95518,2.2090497e-005,156.92534,0.99170691,-1.9753919
2719539.8466155,0.99993759,-1.8142844,2.6242027e-005,-118.06767,1.7079037e-005,-44.660728,0.99162185,-1.9920027
2736112.0373458,0.99988967,-1.8355829,1.0765653e-005,-64.08532,1.683988e-005,66.735474,0.99173254,-1.9959478
2752684.228076,0.99998218,-1.8585167,2.7253674e-005,-52.46471,1.0105217e-005,-40.756741,0.9917661,-2.0003483
2769256.4188063,1.000092,-1.8694576,2.2800714e-005,-104.37579,2.9872524e-005,120.80333,0.99179363,-2.0350146
2785828.6095365,1.0000696,-1.8814864,1.8961027e-005,-24.156813,2.2040003e-005,-96.945511,0.99176341,-2.0452232
2802400.8002668,1.0000277,-1.8805914,1.2040236e-005,49.725521,2.9678436e-005,-60.864029,0.99146295,-2.0481668
2818972.990997,0.99991018,-1.8846744,1.6447355e-005,81.10833,2.9549741e-005,154.29614,0.99195009,-2.0666907
2835545.1817272,0.99982321,-1.9172542,2.1373666e-005,163.15031,5.1153752e-006,-175.81773,0.99169248,-2.0933998
2852117.3724575,1.0000136,-1.9252353,1.917075e-005,149.39589,1.6121721e-005,119.42914,0.99146175,-2.0732887
2868689.5631877,1.0001063,-1.9333465,1.5757478e-005,-59.789673,2.2531114e-005,76.702637,0.99160564,-2.0977876
2885261.753918,1.000001,-1.941506,1.3934287e-005,33.05426,1.0536681e-005,99.184486,0.99172735,-2.1010728
2901833.9446482,0.99987191,-1.9626709,1.5684887e-005,35.57283,3.3104741e-005,82.918541,0.99186152,-2.1225982
2918406.1353785,0.99987203,-1.9680142,3.4069959e-005,142.91231,2.4139046e-005,-14.345194,0.99177355,-2.1382327
2934978.3261087,1.0000497,-1.9856396,4.5945988e-005,111.03864,2.2325474e-005,70.209015,0.99178308,-2.1447568
2951550.5168389,1.0000738,-2.0062461,1.2656094e-005,-147.34364,1.5880622e-005,-146.16705,0.99178916,-2.1488338
2968122.7075692,1.0001574,-1.9943216,3.2713757e-005,-45.230007,2.5330934e-005,-16.566305,0.99167436,-2.168081
2984694.8982994,1.0000893,-2.0215139,4.7733076e-005,121.59129,2.9166951e-005,171.95505,0.99187052,-2.1849921
3001267.0890297,1.0000892,-2.0228953,5.003953e-006,-164.59529,1.531379e-006,-46.614902,0.99187547,-2.2029693
3017839.2797599,1.0002379,-2.0413189,1.4073396e-005,-51.174835,1.4913337e-005,-155.01921,0.99160028,-2.2145922
3034411.4704902,0.9999789,-2.0435188,5.2588075e-005,0.29972094,1.4101054e-005,-122.98557,0.99176139,-2.2305105
3050983.6612204,1.0001824,-2.0715854,2.8631825e-005,-17.231655,1.6244168e-005,-8.8937368,0.99176621,-2.2469721
3067555.8519507,1.0000805,-2.0888369,2.8165026e-005,8.4170036,2.7919728e-005,82.850632,0.99160737,-2.2602875
3084128.0426809,1.0000321,-2.0880222,3.0284869e-005,-102.31646,1.4423422e-005,43.845413,0.99190515,-2.268754
3100700.2334111,1.0002462,-2.1038749,1.6766799e-005,-144.29024,2.1523894e-005,-74.09684,0.99199528,-2.2787304
3117272.4241414,1.0001245,-2.106441,2.2367416e-005,22.174982,1.7855296e-005,-164.8089,0.99207205,-2.3061283
3133844.6148716,1.0002384,-2.1243091,7.7241593e-006,154.54141,3.5587022e-005,148.70161,0.99198627,-2.3109338
3150416.8056019,1.0002869,-2.1372952,2.8006956e-005,-129.91965,5.8237474e-006,-134.19456,0.99167424,-2.3216527
3166988.9963321,1.0001031,-2.1395426,2.0736998e-005,-100.30546,2.8859355e-005,148.75725,0.99190891,-2.3286133
3183561.1870624,1.000216,-2.161226,3.1043819e-005,-20.676109,2.9815305e-005,-127.14308,0.99169534,-2.3287427
3200133.3777926,1.0003248,-2.1742539,3.0478173e-005,-44.119514,2.0522597e-005,-118.55031,0.99176651,-2.3536828
3216705.5685228,1.0001751,-2.1871712,3.5942645e-005,-140.09276,1.3330859e-005,90.102493,0.99178129,-2.3609612
3233277.7592531,1.0002956,-2.1967938,2.2403327e-005,-167.95943,8.946351e-006,-169.05888,0.99159139,-2.3896682
